Frequency [Hz]	Re(Zxdip) [Ohm/m]	Im(Zxdip) [Ohm/m]
1.00000000e+01 7.21661860e+08 1.55093686e+09
1.12201845e+01 7.18112593e+08 1.49075365e+09
1.25892541e+01 7.12816051e+08 1.43118757e+09
1.41253754e+01 7.05860791e+08 1.37241803e+09
1.58489319e+01 6.97347817e+08 1.31460955e+09
1.77827941e+01 6.87388195e+08 1.25791055e+09
1.99526231e+01 6.76100639e+08 1.20245259e+09
2.23872114e+01 6.63609171e+08 1.14835006e+09
2.51188643e+01 6.50040884e+08 1.09570019e+09
2.81838293e+01 6.35523883e+08 1.04458338e+09
3.16227766e+01 6.20185413e+08 9.95063822e+08
3.54813389e+01 6.04150232e+08 9.47190341e+08
3.98107171e+01 5.87539199e+08 9.00997377e+08
4.46683592e+01 5.70468122e+08 8.56506110e+08
5.01187234e+01 5.53046825e+08 8.13725656e+08
5.62341325e+01 5.35378447e+08 7.72654293e+08
6.30957344e+01 5.17558939e+08 7.33280701e+08
7.07945784e+01 4.99676749e+08 6.95585167e+08
7.94328235e+01 4.81812676e+08 6.59540750e+08
8.91250938e+01 4.64039851e+08 6.25114388e+08
1.00000000e+02 4.46423848e+08 5.92267922e+08
1.12201845e+02 4.29022891e+08 5.60959049e+08
1.25892541e+02 4.11888130e+08 5.31142182e+08
1.41253754e+02 3.95063987e+08 5.02769226e+08
1.58489319e+02 3.78588535e+08 4.75790273e+08
1.77827941e+02 3.62493915e+08 4.50154212e+08
1.99526231e+02 3.46806764e+08 4.25809258e+08
2.23872114e+02 3.31548647e+08 4.02703413e+08
2.51188643e+02 3.16736501e+08 3.80784859e+08
2.81838293e+02 3.02383052e+08 3.60002288e+08
3.16227766e+02 2.88497236e+08 3.40305179e+08
3.54813389e+02 2.75084590e+08 3.21644020e+08
3.98107171e+02 2.62147627e+08 3.03970496e+08
4.46683592e+02 2.49686193e+08 2.87237626e+08
5.01187234e+02 2.37697793e+08 2.71399879e+08
5.62341325e+02 2.26177898e+08 2.56413250e+08
6.30957344e+02 2.15120226e+08 2.42235319e+08
7.07945784e+02 2.04517001e+08 2.28825280e+08
7.94328235e+02 1.94359184e+08 2.16143963e+08
8.91250938e+02 1.84636693e+08 2.04153830e+08
1.00000000e+03 1.75338588e+08 1.92818969e+08
1.12201845e+03 1.66453245e+08 1.82105063e+08
1.25892541e+03 1.57968514e+08 1.71979370e+08
1.41253754e+03 1.49871847e+08 1.62410680e+08
1.58489319e+03 1.42150425e+08 1.53369271e+08
1.77827941e+03 1.34791264e+08 1.44826872e+08
1.99526231e+03 1.27781304e+08 1.36756605e+08
2.23872114e+03 1.21107489e+08 1.29132938e+08
2.51188643e+03 1.14756840e+08 1.21931636e+08
2.81838293e+03 1.08716514e+08 1.15129704e+08
3.16227766e+03 1.02973849e+08 1.08705336e+08
3.54813389e+03 9.75164117e+07 1.02637866e+08
3.98107171e+03 9.23320307e+07 9.69077121e+07
4.46683592e+03 8.74088247e+07 9.14963308e+07
5.01187234e+03 8.27352255e+07 8.63861646e+07
5.62341325e+03 7.82999963e+07 8.15605960e+07
6.30957344e+03 7.40922451e+07 7.70039013e+07
7.07945784e+03 7.01013140e+07 7.27012041e+07
7.94328235e+03 6.63173837e+07 6.86384412e+07
8.91250938e+03 6.27302832e+07 6.48023045e+07
1.00000000e+04 5.93306826e+07 6.11802183e+07
1.12201845e+04 5.61094963e+07 5.77602932e+07
1.25892541e+04 5.30579989e+07 5.45312918e+07
1.41253754e+04 5.01678201e+07 5.14825942e+07
1.58489319e+04 4.74309393e+07 4.86041651e+07
1.77827941e+04 4.48396779e+07 4.58865227e+07
1.99526231e+04 4.23866917e+07 4.33207088e+07
2.23872114e+04 4.00649617e+07 4.08982608e+07
2.51188643e+04 3.78677857e+07 3.86111846e+07
2.81838293e+04 3.57887678e+07 3.64519293e+07
3.16227766e+04 3.38218089e+07 3.44133631e+07
3.54813389e+04 3.19610967e+07 3.24887499e+07
3.98107171e+04 3.02010950e+07 3.06717285e+07
4.46683592e+04 2.85365338e+07 2.89562911e+07
5.01187234e+04 2.69623988e+07 2.73367645e+07
5.62341325e+04 2.54739214e+07 2.58077913e+07
6.30957344e+04 2.40665688e+07 2.43643125e+07
7.07945784e+04 2.27360337e+07 2.30015513e+07
7.94328235e+04 2.14782252e+07 2.17149968e+07
8.91250938e+04 2.02892588e+07 2.05003902e+07
1.00000000e+05 1.91654476e+07 1.93537101e+07
1.12201845e+05 1.81032934e+07 1.82711594e+07
1.25892541e+05 1.70994777e+07 1.72491532e+07
1.41253754e+05 1.61508537e+07 1.62843066e+07
1.58489319e+05 1.52544379e+07 1.53734238e+07
1.77827941e+05 1.44074027e+07 1.45134876e+07
1.99526231e+05 1.36070684e+07 1.37016492e+07
2.23872114e+05 1.28508964e+07 1.29352190e+07
2.51188643e+05 1.21364822e+07 1.22116579e+07
2.81838293e+05 1.14615485e+07 1.15285683e+07
3.16227766e+05 1.08239393e+07 1.08836871e+07
3.54813389e+05 1.02216132e+07 1.02748773e+07
3.98107171e+05 9.65263829e+06 9.70012153e+06
4.46683592e+05 9.11518598e+06 9.15751524e+06
5.01187234e+05 8.60752606e+06 8.64526029e+06
5.62341325e+05 8.12802148e+06 8.16165911e+06
6.30957344e+05 7.67512360e+06 7.70510903e+06
7.07945784e+05 7.24736754e+06 7.27409702e+06
7.94328235e+05 6.84336780e+06 6.86719466e+06
8.91250938e+05 6.46181414e+06 6.48305339e+06
1.00000000e+06 6.10146760e+06 6.12040008e+06
1.12201845e+06 5.76115669e+06 5.77803282e+06
1.25892541e+06 5.43977386e+06 5.45481688e+06
1.41253754e+06 5.13627209e+06 5.14968102e+06
1.58489319e+06 4.84966164e+06 4.86161391e+06
1.77827941e+06 4.57900699e+06 4.58966079e+06
1.99526231e+06 4.32342395e+06 4.33292029e+06
2.23872114e+06 4.08207686e+06 4.09054147e+06
2.51188643e+06 3.85417603e+06 3.86172096e+06
2.81838293e+06 3.63897519e+06 3.64570035e+06
3.16227766e+06 3.43576920e+06 3.44176365e+06
3.54813389e+06 3.24389179e+06 3.24923491e+06
3.98107171e+06 3.06271342e+06 3.06747598e+06
4.46683592e+06 2.89163936e+06 2.89588444e+06
5.01187234e+06 2.73010769e+06 2.73389153e+06
5.62341325e+06 2.57758760e+06 2.58096031e+06
6.30957344e+06 2.43357763e+06 2.43658391e+06
7.07945784e+06 2.29760410e+06 2.30028376e+06
7.94328235e+06 2.16921955e+06 2.17160811e+06
8.91250938e+06 2.04800134e+06 2.05013043e+06
1.00000000e+07 1.93355027e+06 1.93544810e+06
1.12201845e+07 1.82548927e+06 1.82718099e+06
1.25892541e+07 1.72346222e+06 1.72497023e+06
1.41253754e+07 1.62713277e+06 1.62847705e+06
1.58489319e+07 1.53618325e+06 1.53738160e+06
1.77827941e+07 1.45031365e+06 1.45138196e+06
1.99526231e+07 1.36924065e+06 1.37019305e+06
2.23872114e+07 1.29269667e+06 1.29354578e+06
2.51188643e+07 1.22042904e+06 1.22118609e+06
2.81838293e+07 1.15219912e+06 1.15287414e+06
3.16227766e+07 1.08778159e+06 1.08838350e+06
3.54813389e+07 1.02696365e+06 1.02750042e+06
3.98107171e+07 9.69544366e+05 9.70023084e+05
4.46683592e+07 9.15333992e+05 9.15760985e+05
5.01187234e+07 8.64153360e+05 8.64534266e+05
5.62341325e+07 8.15833285e+05 8.16173130e+05
6.30957344e+07 7.70214017e+05 7.70517280e+05
7.07945784e+07 7.27144710e+05 7.27415385e+05
7.94328235e+07 6.86482934e+05 6.86724580e+05
8.91250938e+07 6.48094201e+05 6.48309991e+05
1.00000000e+08 6.11851526e+05 6.12044289e+05
1.12201845e+08 5.77635011e+05 5.77807269e+05
1.25892541e+08 5.45331448e+05 5.45485447e+05
1.41253754e+08 5.14833945e+05 5.14971691e+05
1.58489319e+08 4.86041582e+05 4.86164858e+05
1.77827941e+08 4.58859067e+05 4.58969467e+05
1.99526231e+08 4.33196433e+05 4.33295376e+05
2.23872114e+08 4.08968735e+05 4.09057484e+05
2.51188643e+08 3.86095771e+05 3.86175454e+05
2.81838293e+08 3.64501820e+05 3.64573440e+05
3.16227766e+08 3.44115389e+05 3.44179840e+05
3.54813389e+08 3.24868980e+05 3.24927057e+05
3.98107171e+08 3.06698866e+05 3.06751277e+05
4.46683592e+08 2.89544879e+05 2.89592255e+05
5.00000000e+08 2.73674508e+05 2.73717494e+05
5.01187234e+08 2.73350215e+05 2.73393113e+05
5.62341325e+08 2.58061243e+05 2.58100160e+05
5.99500000e+08 2.49936681e+05 2.49973578e+05
6.30957344e+08 2.43627330e+05 2.43662704e+05
6.99000000e+08 2.31467586e+05 2.31500136e+05
7.07945784e+08 2.30000674e+05 2.30032892e+05
7.94328235e+08 2.17136142e+05 2.17165546e+05
7.98500000e+08 2.16568253e+05 2.16597536e+05
8.91250938e+08 2.04991128e+05 2.05018016e+05
8.98000000e+08 2.04219443e+05 2.04246176e+05
9.97500000e+08 1.93767737e+05 1.93792417e+05
1.00000000e+09 1.93525404e+05 1.93550038e+05
1.09700000e+09 1.84772368e+05 1.84795353e+05
1.12201845e+09 1.82700996e+05 1.82723600e+05
1.19650000e+09 1.76923785e+05 1.76945341e+05
1.25892541e+09 1.72482050e+05 1.72502816e+05
1.29600000e+09 1.69997359e+05 1.70017688e+05
1.39550000e+09 1.63825595e+05 1.63844855e+05
1.41253754e+09 1.62834719e+05 1.62853809e+05
1.49500000e+09 1.58280715e+05 1.58299030e+05
1.58489319e+09 1.53727049e+05 1.53744597e+05
1.59450000e+09 1.53263313e+05 1.53280782e+05
1.69400000e+09 1.48694737e+05 1.48711442e+05
1.77827941e+09 1.45128874e+05 1.45144985e+05
1.79350000e+09 1.44511833e+05 1.44527841e+05
1.89300000e+09 1.40663227e+05 1.40678593e+05
1.99250000e+09 1.37106641e+05 1.37121411e+05
1.99526231e+09 1.37011716e+05 1.37026470e+05
2.09200000e+09 1.33806923e+05 1.33821137e+05
2.19150000e+09 1.30734574e+05 1.30748264e+05
2.23872114e+09 1.29348690e+05 1.29362142e+05
2.29100000e+09 1.27864630e+05 1.27877825e+05
2.39050000e+09 1.25175801e+05 1.25188525e+05
2.49000000e+09 1.22649809e+05 1.22662083e+05
2.51188643e+09 1.22114419e+05 1.22126597e+05
2.58950000e+09 1.20270857e+05 1.20282699e+05
2.68900000e+09 1.18025212e+05 1.18036639e+05
2.78850000e+09 1.15900874e+05 1.15911899e+05
2.81838293e+09 1.15284944e+05 1.15295851e+05
2.88800000e+09 1.13887303e+05 1.13897938e+05
2.98750000e+09 1.11975196e+05 1.11985453e+05
3.08700000e+09 1.10156311e+05 1.10166198e+05
3.16227766e+09 1.08837651e+05 1.08847264e+05
3.18650000e+09 1.08423313e+05 1.08432838e+05
3.28600000e+09 1.06769648e+05 1.06778820e+05
3.38550000e+09 1.05189445e+05 1.05198270e+05
3.48500000e+09 1.03677422e+05 1.03685905e+05
3.54813389e+09 1.02751192e+05 1.02759461e+05
3.58450000e+09 1.02228814e+05 1.02236961e+05
3.68400000e+09 1.00839309e+05 1.00847125e+05
3.78350000e+09 9.95049966e+04 9.95124849e+04
3.88300000e+09 9.82223173e+04 9.82294817e+04
3.98107171e+09 9.70054154e+04 9.70122639e+04
3.98250000e+09 9.69880256e+04 9.69948695e+04
4.08200000e+09 9.57991547e+04 9.58056810e+04
4.18150000e+09 9.46529863e+04 9.46591976e+04
4.28100000e+09 9.35470245e+04 9.35529232e+04
4.38050000e+09 9.24789731e+04 9.24845612e+04
4.46683592e+09 9.15813022e+04 9.15866222e+04
4.48000000e+09 9.14467153e+04 9.14519945e+04
4.57950000e+09 9.04482961e+04 9.04532682e+04
4.67900000e+09 8.94819068e+04 8.94865733e+04
4.77850000e+09 8.85458715e+04 8.85502336e+04
4.87800000e+09 8.76386342e+04 8.76426930e+04
4.97750000e+09 8.67587485e+04 8.67625050e+04
5.01187234e+09 8.64609003e+04 8.64645526e+04
5.07700000e+09 8.59048676e+04 8.59083228e+04
5.17650000e+09 8.50757359e+04 8.50788905e+04
5.27600000e+09 8.42701810e+04 8.42730357e+04
5.37550000e+09 8.34871068e+04 8.34896621e+04
5.47500000e+09 8.27254872e+04 8.27277436e+04
5.57450000e+09 8.19843606e+04 8.19863184e+04
5.62341325e+09 8.16272661e+04 8.16290774e+04
5.67400000e+09 8.12628245e+04 8.12644842e+04
5.77350000e+09 8.05600313e+04 8.05613932e+04
5.87300000e+09 7.98751838e+04 7.98762479e+04
5.97250000e+09 7.92075313e+04 7.92082980e+04
6.07200000e+09 7.85563666e+04 7.85568359e+04
6.17150000e+09 7.79210225e+04 7.79211944e+04
6.27100000e+09 7.73008688e+04 7.73007434e+04
6.30957344e+09 7.70644094e+04 7.70641688e+04
6.37050000e+09 7.66953101e+04 7.66948873e+04
6.47000000e+09 7.61037831e+04 7.61030630e+04
6.56950000e+09 7.55257545e+04 7.55247370e+04
6.66900000e+09 7.49607190e+04 7.49594038e+04
6.76850000e+09 7.44081972e+04 7.44065844e+04
6.86800000e+09 7.38677343e+04 7.38658236e+04
6.96750000e+09 7.33388982e+04 7.33366895e+04
7.06700000e+09 7.28212783e+04 7.28187713e+04
7.07945784e+09 7.27572404e+04 7.27546960e+04
7.16650000e+09 7.23144839e+04 7.23116784e+04
7.26600000e+09 7.18181431e+04 7.18150389e+04
7.36550000e+09 7.13319016e+04 7.13284985e+04
7.46500000e+09 7.08554219e+04 7.08517195e+04
7.56450000e+09 7.03883818e+04 7.03843799e+04
7.66400000e+09 6.99304740e+04 6.99261723e+04
7.76350000e+09 6.94814050e+04 6.94768032e+04
7.86300000e+09 6.90408942e+04 6.90359920e+04
7.94328235e+09 6.86915198e+04 6.86863749e+04
7.96250000e+09 6.86086735e+04 6.86034705e+04
8.06200000e+09 6.81844862e+04 6.81789821e+04
8.16150000e+09 6.77680869e+04 6.77622813e+04
8.26100000e+09 6.73592402e+04 6.73531329e+04
8.36050000e+09 6.69577208e+04 6.69513114e+04
8.46000000e+09 6.65633127e+04 6.65566007e+04
8.55950000e+09 6.61758085e+04 6.61687937e+04
8.65900000e+09 6.57950094e+04 6.57876913e+04
8.75850000e+09 6.54207244e+04 6.54131027e+04
8.85800000e+09 6.50527701e+04 6.50448444e+04
8.91250938e+09 6.48538129e+04 6.48457205e+04
8.95750000e+09 6.46909701e+04 6.46827401e+04
9.05700000e+09 6.43351551e+04 6.43266203e+04
9.15650000e+09 6.39851619e+04 6.39763220e+04
9.25600000e+09 6.36408336e+04 6.36316883e+04
9.35550000e+09 6.33020194e+04 6.32925681e+04
9.45500000e+09 6.29685737e+04 6.29588161e+04
9.55450000e+09 6.26403563e+04 6.26302921e+04
9.65400000e+09 6.23172323e+04 6.23068610e+04
9.75350000e+09 6.19990714e+04 6.19883926e+04
9.85300000e+09 6.16857480e+04 6.16747613e+04
9.95250000e+09 6.13771409e+04 6.13658459e+04
1.00000000e+10 6.12314448e+04 6.12200026e+04
1.00520000e+10 6.10731330e+04 6.10615295e+04
1.01515000e+10 6.07736115e+04 6.07616989e+04
1.02510000e+10 6.04784672e+04 6.04662452e+04
1.03505000e+10 6.01875946e+04 6.01750628e+04
1.04500000e+10 5.99008919e+04 5.98880498e+04
1.05495000e+10 5.96182604e+04 5.96051077e+04
1.06490000e+10 5.93396049e+04 5.93261412e+04
1.07485000e+10 5.90648331e+04 5.90510580e+04
1.08480000e+10 5.87938558e+04 5.87797689e+04
1.09475000e+10 5.85265865e+04 5.85121875e+04
1.10470000e+10 5.82629417e+04 5.82482301e+04
1.11465000e+10 5.80028401e+04 5.79878156e+04
1.12201845e+10 5.78124596e+04 5.77972032e+04
1.12460000e+10 5.77462033e+04 5.77308655e+04
1.13455000e+10 5.74929552e+04 5.74773037e+04
1.14450000e+10 5.72430219e+04 5.72270564e+04
1.15445000e+10 5.69963319e+04 5.69800519e+04
1.16440000e+10 5.67528157e+04 5.67362209e+04
1.17435000e+10 5.65124060e+04 5.64954959e+04
1.18430000e+10 5.62750374e+04 5.62578117e+04
1.19425000e+10 5.60406464e+04 5.60231047e+04
1.20420000e+10 5.58091713e+04 5.57913133e+04
1.21415000e+10 5.55805524e+04 5.55623777e+04
1.22410000e+10 5.53547314e+04 5.53362397e+04
1.23405000e+10 5.51316519e+04 5.51128427e+04
1.24400000e+10 5.49112589e+04 5.48921319e+04
1.25395000e+10 5.46934991e+04 5.46740539e+04
1.25892541e+10 5.45855814e+04 5.45659770e+04
1.26390000e+10 5.44783204e+04 5.44585567e+04
1.27385000e+10 5.42656725e+04 5.42455899e+04
1.28380000e+10 5.40555061e+04 5.40351043e+04
1.29375000e+10 5.38477736e+04 5.38270521e+04
1.30370000e+10 5.36424282e+04 5.36213868e+04
1.31365000e+10 5.34394249e+04 5.34180632e+04
1.32360000e+10 5.32387194e+04 5.32170370e+04
1.33355000e+10 5.30402688e+04 5.30182655e+04
1.34350000e+10 5.28440314e+04 5.28217067e+04
1.35345000e+10 5.26499663e+04 5.26273199e+04
1.36340000e+10 5.24580338e+04 5.24350654e+04
1.37335000e+10 5.22681953e+04 5.22449046e+04
1.38330000e+10 5.20804131e+04 5.20567996e+04
1.39325000e+10 5.18946503e+04 5.18707138e+04
1.40320000e+10 5.17108711e+04 5.16866112e+04
1.41253754e+10 5.15401772e+04 5.15156135e+04
1.41315000e+10 5.15290406e+04 5.15044570e+04
1.42310000e+10 5.13491245e+04 5.13242169e+04
1.43305000e+10 5.11710897e+04 5.11458577e+04
1.44300000e+10 5.09949036e+04 5.09693469e+04
1.45295000e+10 5.08205345e+04 5.07946528e+04
1.46290000e+10 5.06479515e+04 5.06217445e+04
1.47285000e+10 5.04771244e+04 5.04505917e+04
1.48280000e+10 5.03080237e+04 5.02811650e+04
1.49275000e+10 5.01406205e+04 5.01134355e+04
1.50270000e+10 4.99748867e+04 4.99473751e+04
1.51265000e+10 4.98107948e+04 4.97829563e+04
1.52260000e+10 4.96483180e+04 4.96201522e+04
1.53255000e+10 4.94874299e+04 4.94589367e+04
1.54250000e+10 4.93281050e+04 4.92992839e+04
1.55245000e+10 4.91703181e+04 4.91411689e+04
1.56240000e+10 4.90140448e+04 4.89845671e+04
1.57235000e+10 4.88592610e+04 4.88294545e+04
1.58230000e+10 4.87059432e+04 4.86758077e+04
1.58489319e+10 4.86662232e+04 4.86360018e+04
1.59225000e+10 4.85540687e+04 4.85236037e+04
1.60220000e+10 4.84036148e+04 4.83728202e+04
1.61215000e+10 4.82545597e+04 4.82234351e+04
1.62210000e+10 4.81068818e+04 4.80754270e+04
1.63205000e+10 4.79605602e+04 4.79287749e+04
1.64200000e+10 4.78155743e+04 4.77834582e+04
1.65195000e+10 4.76719039e+04 4.76394567e+04
1.66190000e+10 4.75295293e+04 4.74967507e+04
1.67185000e+10 4.73884313e+04 4.73553210e+04
1.68180000e+10 4.72485908e+04 4.72151485e+04
1.69175000e+10 4.71099894e+04 4.70762149e+04
1.70170000e+10 4.69726090e+04 4.69385019e+04
1.71165000e+10 4.68364317e+04 4.68019919e+04
1.72160000e+10 4.67014402e+04 4.66666673e+04
1.73155000e+10 4.65676175e+04 4.65325112e+04
1.74150000e+10 4.64349467e+04 4.63995067e+04
1.75145000e+10 4.63034115e+04 4.62676377e+04
1.76140000e+10 4.61729959e+04 4.61368879e+04
1.77135000e+10 4.60436841e+04 4.60072416e+04
1.77827941e+10 4.59542722e+04 4.59175966e+04
1.78130000e+10 4.59154606e+04 4.58786835e+04
1.79125000e+10 4.57883104e+04 4.57511983e+04
1.80120000e+10 4.56622187e+04 4.56247713e+04
1.81115000e+10 4.55371707e+04 4.54993878e+04
1.82110000e+10 4.54131523e+04 4.53750337e+04
1.83105000e+10 4.52901495e+04 4.52516949e+04
1.84100000e+10 4.51681485e+04 4.51293576e+04
1.85095000e+10 4.50471359e+04 4.50080084e+04
1.86090000e+10 4.49270983e+04 4.48876341e+04
1.87085000e+10 4.48080229e+04 4.47682216e+04
1.88080000e+10 4.46898969e+04 4.46497583e+04
1.89075000e+10 4.45727078e+04 4.45322317e+04
1.90070000e+10 4.44564433e+04 4.44156294e+04
1.91065000e+10 4.43410913e+04 4.42999394e+04
1.92060000e+10 4.42266401e+04 4.41851499e+04
1.93055000e+10 4.41130780e+04 4.40712492e+04
1.94050000e+10 4.40003936e+04 4.39582260e+04
1.95045000e+10 4.38885756e+04 4.38460690e+04
1.96040000e+10 4.37776132e+04 4.37347673e+04
1.97035000e+10 4.36674954e+04 4.36243100e+04
1.98030000e+10 4.35582116e+04 4.35146865e+04
1.99025000e+10 4.34497515e+04 4.34058864e+04
1.99526231e+10 4.33954234e+04 4.33513869e+04
2.00020000e+10 4.33421047e+04 4.32978994e+04
2.01015000e+10 4.32352612e+04 4.31907155e+04
2.02010000e+10 4.31292111e+04 4.30843246e+04
2.03005000e+10 4.30239446e+04 4.29787172e+04
2.04000000e+10 4.29194521e+04 4.28738837e+04
2.04995000e+10 4.28157244e+04 4.27698145e+04
2.05990000e+10 4.27127521e+04 4.26665006e+04
2.06985000e+10 4.26105261e+04 4.25639328e+04
2.07980000e+10 4.25090375e+04 4.24621022e+04
2.08975000e+10 4.24082776e+04 4.23609999e+04
2.09970000e+10 4.23082376e+04 4.22606174e+04
2.10965000e+10 4.22089090e+04 4.21609462e+04
2.11960000e+10 4.21102837e+04 4.20619778e+04
2.12955000e+10 4.20123531e+04 4.19637042e+04
2.13950000e+10 4.19151095e+04 4.18661171e+04
2.14945000e+10 4.18185446e+04 4.17692086e+04
2.15940000e+10 4.17226508e+04 4.16729710e+04
2.16935000e+10 4.16274203e+04 4.15773964e+04
2.17930000e+10 4.15328455e+04 4.14824774e+04
2.18925000e+10 4.14389190e+04 4.13882065e+04
2.19920000e+10 4.13456335e+04 4.12945762e+04
2.20915000e+10 4.12529817e+04 4.12015795e+04
2.21910000e+10 4.11609565e+04 4.11092092e+04
2.22905000e+10 4.10695509e+04 4.10174583e+04
2.23872114e+10 4.09812943e+04 4.09288659e+04
2.23900000e+10 4.09787580e+04 4.09263199e+04
2.24895000e+10 4.08885710e+04 4.08357872e+04
2.25890000e+10 4.07989833e+04 4.07458535e+04
2.26885000e+10 4.07099883e+04 4.06565124e+04
2.27880000e+10 4.06215794e+04 4.05677572e+04
2.28875000e+10 4.05337504e+04 4.04795816e+04
2.29870000e+10 4.04464950e+04 4.03919794e+04
2.30865000e+10 4.03598068e+04 4.03049443e+04
2.31860000e+10 4.02736800e+04 4.02184703e+04
2.32855000e+10 4.01881084e+04 4.01325514e+04
2.33850000e+10 4.01030862e+04 4.00471816e+04
2.34845000e+10 4.00186075e+04 3.99623552e+04
2.35840000e+10 3.99346666e+04 3.98780663e+04
2.36835000e+10 3.98512578e+04 3.97943094e+04
2.37830000e+10 3.97683756e+04 3.97110788e+04
2.38825000e+10 3.96860144e+04 3.96283691e+04
2.39820000e+10 3.96041689e+04 3.95461749e+04
2.40815000e+10 3.95228338e+04 3.94644909e+04
2.41810000e+10 3.94420037e+04 3.93833117e+04
2.42805000e+10 3.93616735e+04 3.93026322e+04
2.43800000e+10 3.92818381e+04 3.92224473e+04
2.44795000e+10 3.92024925e+04 3.91427521e+04
2.45790000e+10 3.91236317e+04 3.90635414e+04
2.46785000e+10 3.90452508e+04 3.89848104e+04
2.47780000e+10 3.89673449e+04 3.89065543e+04
2.48775000e+10 3.88899094e+04 3.88287684e+04
2.49770000e+10 3.88129396e+04 3.87514480e+04
2.50765000e+10 3.87364308e+04 3.86745884e+04
2.51188643e+10 3.87039943e+04 3.86420024e+04
2.51760000e+10 3.86603784e+04 3.85981850e+04
2.52755000e+10 3.85847780e+04 3.85222335e+04
2.53750000e+10 3.85096251e+04 3.84467293e+04
2.54745000e+10 3.84349154e+04 3.83716680e+04
2.55740000e+10 3.83606445e+04 3.82970455e+04
2.56735000e+10 3.82868082e+04 3.82228573e+04
